Circuit: * C:\Users\alfre\Desktop\HydrogelHeater\lt_spice_sims\T_sense_circuits\NTC\NTC_with_MCP6021_OpAmp.asc

Instance "m:u1:14": Length shorter than recommended for a level 1 MOSFET.
Instance "m:u1:12": Length shorter than recommended for a level 1 MOSFET.
Direct Newton iteration failed to find .op point.  (Use ".option noopiter" to skip.)
Starting Gmin stepping
Increasing initial diagonal Gmin to 100
Increasing initial diagonal Gmin to 1000
Gmin = 1000
Gmin = 107.374
Gmin = 11.5292
Gmin = 1.23794
Gmin = 0.132923
Gmin = 0.0142725
Gmin = 0.0015325
vernier = 0.5
vernier = 0.25
vernier = 0.125
Gmin = 0.000994589
vernier = 0.0625
vernier = 0.03125
vernier = 0.015625
vernier = 0.0078125
Gmin = 0.00100011
vernier = 0.00390625
vernier = 0.00195313
vernier = 0.000976563
vernier = 0.000488281
Gmin = 0
Gmin = 0
Gmin stepping succeeded in finding the operating point.

Semiconductor Device Operating Points:
                        --- Diodes ---
Name:    d:u1:99     d:u1:98     d:u1:21     d:u1:20
Model:   u1:desd     u1:desd     u1:dn1      u1:dn1
Id:     -3.48e-14   -4.97e-12    4.23e-04    4.23e-04
Vd:     -3.41e-02   -4.97e+00    5.14e-01    5.14e-01
Req:     9.90e+11    1.00e+12    6.11e+01    6.11e+01
CAP:     0.00e+00    0.00e+00    0.00e+00    0.00e+00

                        --- MOSFET Transistors ---
Name:        m:u1:14     m:u1:12
Model:       u1:nmi      u1:nmi
Id:          1.12e-04    1.13e-04
Vgs:         7.32e-01    7.32e-01
Vds:         3.36e+00    3.36e+00
Vbs:         0.00e+00    0.00e+00
Vth:         0.00e+00    0.00e+00
Vdsat:       7.32e-01    7.32e-01
Gm:          3.07e-04    3.07e-04
Gds:         0.00e+00    0.00e+00
Gmb:         0.00e+00    0.00e+00
Cbd:         0.00e+00    0.00e+00
Cbs:         0.00e+00    0.00e+00
Cgsov:       0.00e+00    0.00e+00
Cgdov:       0.00e+00    0.00e+00
Cgbov:       0.00e+00    0.00e+00
Cgs:         0.00e+00    0.00e+00
Cgd:         0.00e+00    0.00e+00
Cgb:         0.00e+00    0.00e+00



Date: Tue Jun 09 19:28:14 2020
Total elapsed time: 5.265 seconds.

tnom = 27
temp = 27
method = trap
totiter = 632
traniter = 0
tranpoints = 0
accept = 0
rejected = 0
matrix size = 54
fillins = 41
solver = Normal
Matrix Compiler1: 3.59 KB object code size
Matrix Compiler2: 4.51 KB object code size  1.1/0.5/[0.3]

